conic_curve_mm,x_cord,y_cord,angle,temp,Vin,Vout,Cin,Cout,S21_param,inductance,efficiency,L_tx_uH,L_tx_eff_uH,L_rx_eff_uH,C_parasitic_pF,f_srf_MHz,R_skin_ohm,R_total_ohm,proximity_factor,Q_tx,Q_rx,M_nH,k,kQ,k_critical,S11_dB,S22_dB,S12_dB,P_in_W,P_out_W,f_split_low_MHz,f_split_high_MHz,split_gap_kHz,coupling_regime,d_lateral_mm,alignment,group,Vout_measured,Iout_measured,efficiency_measured,notes
0,0,0,0,75.0,12.0,0.54717,86.999,86.999,-15.409,6.33383,0.71952,6.33029,6.33383,6.33383,0.0487,286.5,0.4593,2.29652,5.0,117.49,117.49,630.9266,0.09961211,11.70357,0.00851126,-0.798,-0.798,-15.409,2.88,0.02072228,6.4656,7.1452,679.59,overcoupled,0.0,x-axis,control,,,,
0,5,0,0,75.0,12.0,0.547085,86.999,86.999,-15.318,6.33383,0.73476,6.33029,6.33383,6.33383,0.0487,286.5,0.4593,2.29652,5.0,117.49,117.49,624.255,0.09855878,11.57981,0.00851126,-0.798,-0.798,-15.318,2.88,0.02116099,6.4687,7.141,672.32,overcoupled,5.0,x-axis,control,,,,
0,10,0,0,75.0,12.0,0.546812,86.999,86.999,-15.039,6.33383,0.78346,6.33029,6.33383,6.33383,0.0487,286.5,0.4593,2.29652,5.0,117.49,117.49,604.2402,0.0953988,11.20854,0.00851126,-0.798,-0.798,-15.039,2.88,0.02256357,6.478,7.1285,650.51,overcoupled,10.0,x-axis,control,,,,
0,15,0,0,75.0,12.0,0.546293,86.999,86.999,-14.554,6.33383,0.87603,6.33029,6.33383,6.33383,0.0487,286.5,0.4593,2.29652,5.0,117.49,117.49,570.8822,0.09013216,10.58976,0.00851126,-0.798,-0.798,-14.554,2.88,0.02522955,6.4937,7.1079,614.22,overcoupled,15.0,x-axis,control,,,,
0,20,0,0,75.0,12.0,0.545396,86.999,86.999,-13.827,6.33383,1.03567,6.33029,6.33383,6.33383,0.0487,286.5,0.4593,2.29652,5.0,117.49,117.49,524.18099,0.08275887,9.72346,0.00851126,-0.798,-0.798,-13.827,2.88,0.02982719,6.5157,7.0793,563.52,overcoupled,20.0,x-axis,control,,,,
0,25,0,0,75.0,12.0,0.543828,86.999,86.999,-12.795,6.33383,1.31338,6.33029,6.33383,6.33383,0.0487,286.5,0.4593,2.29652,5.0,117.49,117.49,464.13659,0.07327893,8.60965,0.00851126,-0.798,-0.798,-12.795,2.88,0.03782531,6.5445,7.043,498.51,overcoupled,25.0,x-axis,control,,,,
0,30,0,0,75.0,12.0,0.54087,86.999,86.999,-11.348,6.33383,1.83294,6.33029,6.33383,6.33383,0.0487,286.5,0.4593,2.29652,5.0,117.49,117.49,390.74899,0.06169233,7.24832,0.00851126,-0.798,-0.798,-11.348,2.88,0.05278866,6.5801,6.9993,419.27,overcoupled,30.0,x-axis,control,,,,
0,35,0,0,75.0,12.0,0.534363,86.999,86.999,-9.273,6.33383,2.9555,6.33029,6.33383,6.33383,0.0487,286.5,0.4593,2.29652,5.0,117.49,117.49,304.01819,0.04799907,5.63948,0.00851126,-0.798,-0.798,-9.273,2.88,0.08511852,6.6229,6.9488,325.9,overcoupled,35.0,x-axis,control,,,,
0,40,0,0,75.0,12.0,0.515169,86.999,86.999,-6.123,6.33383,6.10429,6.33029,6.33383,6.33383,0.0487,286.5,0.4593,2.29652,5.0,117.49,117.49,203.94419,0.03219917,3.78313,0.00851126,-0.798,-0.798,-6.123,2.88,0.17580364,6.6734,6.8919,218.45,overcoupled,40.0,x-axis,control,,,,
0,45,0,0,75.0,12.0,0.424278,86.999,86.999,-1.494,6.33383,17.72167,6.33029,6.33383,6.33383,0.0487,286.5,0.4593,2.29652,5.0,117.49,117.49,98.5773,0.0155636,1.82859,0.00851126,-0.798,-0.798,-1.494,2.88,0.51038418,6.7278,6.8334,105.54,overcoupled,45.0,x-axis,control,,,,
0,50,0,0,75.0,12.0,0.093325,86.999,86.999,-2.498,6.33383,14.06528,6.33029,6.33383,6.33383,0.0487,286.5,0.4593,2.29652,5.0,117.49,117.49,24.33899,0.00384269,0.45148,0.00851126,-0.798,-0.798,-2.498,2.88,0.40507999,6.78,6.78,0.0,undercoupled,50.0,x-axis,control,,,,
0,55,0,0,75.0,12.0,0.0,86.999,86.999,-240.0,6.33383,0.0,6.33029,6.33383,6.33383,0.0487,286.5,0.4593,2.29652,5.0,117.49,117.49,0.0,0.0,0.0,0.00851126,-0.798,-0.798,-240.0,2.88,0.0,6.78,6.78,0.0,undercoupled,55.0,x-axis,control,,,,
0,60,0,0,75.0,12.0,0.0,86.999,86.999,-240.0,6.33383,0.0,6.33029,6.33383,6.33383,0.0487,286.5,0.4593,2.29652,5.0,117.49,117.49,0.0,0.0,0.0,0.00851126,-0.798,-0.798,-240.0,2.88,0.0,6.78,6.78,0.0,undercoupled,60.0,x-axis,control,,,,
0,65,0,0,75.0,12.0,0.0,86.999,86.999,-240.0,6.33383,0.0,6.33029,6.33383,6.33383,0.0487,286.5,0.4593,2.29652,5.0,117.49,117.49,0.0,0.0,0.0,0.00851126,-0.798,-0.798,-240.0,2.88,0.0,6.78,6.78,0.0,undercoupled,65.0,x-axis,control,,,,
0,70,0,0,75.0,12.0,0.0,86.999,86.999,-240.0,6.33383,0.0,6.33029,6.33383,6.33383,0.0487,286.5,0.4593,2.29652,5.0,117.49,117.49,0.0,0.0,0.0,0.00851126,-0.798,-0.798,-240.0,2.88,0.0,6.78,6.78,0.0,undercoupled,70.0,x-axis,control,,,,
0,75,0,0,75.0,12.0,0.0,86.999,86.999,-240.0,6.33383,0.0,6.33029,6.33383,6.33383,0.0487,286.5,0.4593,2.29652,5.0,117.49,117.49,0.0,0.0,0.0,0.00851126,-0.798,-0.798,-240.0,2.88,0.0,6.78,6.78,0.0,undercoupled,75.0,x-axis,control,,,,
0,80,0,0,75.0,12.0,0.0,86.999,86.999,-240.0,6.33383,0.0,6.33029,6.33383,6.33383,0.0487,286.5,0.4593,2.29652,5.0,117.49,117.49,0.0,0.0,0.0,0.00851126,-0.798,-0.798,-240.0,2.88,0.0,6.78,6.78,0.0,undercoupled,80.0,x-axis,control,,,,
0,85,0,0,75.0,12.0,0.0,86.999,86.999,-240.0,6.33383,0.0,6.33029,6.33383,6.33383,0.0487,286.5,0.4593,2.29652,5.0,117.49,117.49,0.0,0.0,0.0,0.00851126,-0.798,-0.798,-240.0,2.88,0.0,6.78,6.78,0.0,undercoupled,85.0,x-axis,control,,,,
0,90,0,0,75.0,12.0,0.0,86.999,86.999,-240.0,6.33383,0.0,6.33029,6.33383,6.33383,0.0487,286.5,0.4593,2.29652,5.0,117.49,117.49,0.0,0.0,0.0,0.00851126,-0.798,-0.798,-240.0,2.88,0.0,6.78,6.78,0.0,undercoupled,90.0,x-axis,control,,,,
0,95,0,0,75.0,12.0,0.0,86.999,86.999,-240.0,6.33383,0.0,6.33029,6.33383,6.33383,0.0487,286.5,0.4593,2.29652,5.0,117.49,117.49,0.0,0.0,0.0,0.00851126,-0.798,-0.798,-240.0,2.88,0.0,6.78,6.78,0.0,undercoupled,95.0,x-axis,control,,,,
0,100,0,0,75.0,12.0,0.0,86.999,86.999,-240.0,6.33383,0.0,6.33029,6.33383,6.33383,0.0487,286.5,0.4593,2.29652,5.0,117.49,117.49,0.0,0.0,0.0,0.00851126,-0.798,-0.798,-240.0,2.88,0.0,6.78,6.78,0.0,undercoupled,100.0,x-axis,control,,,,
0,0,5,0,75.0,12.0,0.547085,86.999,86.999,-15.318,6.33383,0.73476,6.33029,6.33383,6.33383,0.0487,286.5,0.4593,2.29652,5.0,117.49,117.49,624.255,0.09855878,11.57981,0.00851126,-0.798,-0.798,-15.318,2.88,0.02116099,6.4687,7.141,672.32,overcoupled,5.0,y-axis,control,,,,
0,0,10,0,75.0,12.0,0.546812,86.999,86.999,-15.039,6.33383,0.78346,6.33029,6.33383,6.33383,0.0487,286.5,0.4593,2.29652,5.0,117.49,117.49,604.2402,0.0953988,11.20854,0.00851126,-0.798,-0.798,-15.039,2.88,0.02256357,6.478,7.1285,650.51,overcoupled,10.0,y-axis,control,,,,
0,0,15,0,75.0,12.0,0.546293,86.999,86.999,-14.554,6.33383,0.87603,6.33029,6.33383,6.33383,0.0487,286.5,0.4593,2.29652,5.0,117.49,117.49,570.8822,0.09013216,10.58976,0.00851126,-0.798,-0.798,-14.554,2.88,0.02522955,6.4937,7.1079,614.22,overcoupled,15.0,y-axis,control,,,,
0,0,20,0,75.0,12.0,0.545396,86.999,86.999,-13.827,6.33383,1.03567,6.33029,6.33383,6.33383,0.0487,286.5,0.4593,2.29652,5.0,117.49,117.49,524.18099,0.08275887,9.72346,0.00851126,-0.798,-0.798,-13.827,2.88,0.02982719,6.5157,7.0793,563.52,overcoupled,20.0,y-axis,control,,,,
0,0,25,0,75.0,12.0,0.543828,86.999,86.999,-12.795,6.33383,1.31338,6.33029,6.33383,6.33383,0.0487,286.5,0.4593,2.29652,5.0,117.49,117.49,464.13659,0.07327893,8.60965,0.00851126,-0.798,-0.798,-12.795,2.88,0.03782531,6.5445,7.043,498.51,overcoupled,25.0,y-axis,control,,,,
0,0,30,0,75.0,12.0,0.54087,86.999,86.999,-11.348,6.33383,1.83294,6.33029,6.33383,6.33383,0.0487,286.5,0.4593,2.29652,5.0,117.49,117.49,390.74899,0.06169233,7.24832,0.00851126,-0.798,-0.798,-11.348,2.88,0.05278866,6.5801,6.9993,419.27,overcoupled,30.0,y-axis,control,,,,
0,0,35,0,75.0,12.0,0.534363,86.999,86.999,-9.273,6.33383,2.9555,6.33029,6.33383,6.33383,0.0487,286.5,0.4593,2.29652,5.0,117.49,117.49,304.01819,0.04799907,5.63948,0.00851126,-0.798,-0.798,-9.273,2.88,0.08511852,6.6229,6.9488,325.9,overcoupled,35.0,y-axis,control,,,,
0,0,40,0,75.0,12.0,0.515169,86.999,86.999,-6.123,6.33383,6.10429,6.33029,6.33383,6.33383,0.0487,286.5,0.4593,2.29652,5.0,117.49,117.49,203.94419,0.03219917,3.78313,0.00851126,-0.798,-0.798,-6.123,2.88,0.17580364,6.6734,6.8919,218.45,overcoupled,40.0,y-axis,control,,,,
0,0,45,0,75.0,12.0,0.424278,86.999,86.999,-1.494,6.33383,17.72167,6.33029,6.33383,6.33383,0.0487,286.5,0.4593,2.29652,5.0,117.49,117.49,98.5773,0.0155636,1.82859,0.00851126,-0.798,-0.798,-1.494,2.88,0.51038418,6.7278,6.8334,105.54,overcoupled,45.0,y-axis,control,,,,
0,0,50,0,75.0,12.0,0.093325,86.999,86.999,-2.498,6.33383,14.06528,6.33029,6.33383,6.33383,0.0487,286.5,0.4593,2.29652,5.0,117.49,117.49,24.33899,0.00384269,0.45148,0.00851126,-0.798,-0.798,-2.498,2.88,0.40507999,6.78,6.78,0.0,undercoupled,50.0,y-axis,control,,,,
0,0,55,0,75.0,12.0,0.0,86.999,86.999,-240.0,6.33383,0.0,6.33029,6.33383,6.33383,0.0487,286.5,0.4593,2.29652,5.0,117.49,117.49,0.0,0.0,0.0,0.00851126,-0.798,-0.798,-240.0,2.88,0.0,6.78,6.78,0.0,undercoupled,55.0,y-axis,control,,,,
0,0,60,0,75.0,12.0,0.0,86.999,86.999,-240.0,6.33383,0.0,6.33029,6.33383,6.33383,0.0487,286.5,0.4593,2.29652,5.0,117.49,117.49,0.0,0.0,0.0,0.00851126,-0.798,-0.798,-240.0,2.88,0.0,6.78,6.78,0.0,undercoupled,60.0,y-axis,control,,,,
0,0,65,0,75.0,12.0,0.0,86.999,86.999,-240.0,6.33383,0.0,6.33029,6.33383,6.33383,0.0487,286.5,0.4593,2.29652,5.0,117.49,117.49,0.0,0.0,0.0,0.00851126,-0.798,-0.798,-240.0,2.88,0.0,6.78,6.78,0.0,undercoupled,65.0,y-axis,control,,,,
0,0,70,0,75.0,12.0,0.0,86.999,86.999,-240.0,6.33383,0.0,6.33029,6.33383,6.33383,0.0487,286.5,0.4593,2.29652,5.0,117.49,117.49,0.0,0.0,0.0,0.00851126,-0.798,-0.798,-240.0,2.88,0.0,6.78,6.78,0.0,undercoupled,70.0,y-axis,control,,,,
0,0,75,0,75.0,12.0,0.0,86.999,86.999,-240.0,6.33383,0.0,6.33029,6.33383,6.33383,0.0487,286.5,0.4593,2.29652,5.0,117.49,117.49,0.0,0.0,0.0,0.00851126,-0.798,-0.798,-240.0,2.88,0.0,6.78,6.78,0.0,undercoupled,75.0,y-axis,control,,,,
0,0,80,0,75.0,12.0,0.0,86.999,86.999,-240.0,6.33383,0.0,6.33029,6.33383,6.33383,0.0487,286.5,0.4593,2.29652,5.0,117.49,117.49,0.0,0.0,0.0,0.00851126,-0.798,-0.798,-240.0,2.88,0.0,6.78,6.78,0.0,undercoupled,80.0,y-axis,control,,,,
0,0,85,0,75.0,12.0,0.0,86.999,86.999,-240.0,6.33383,0.0,6.33029,6.33383,6.33383,0.0487,286.5,0.4593,2.29652,5.0,117.49,117.49,0.0,0.0,0.0,0.00851126,-0.798,-0.798,-240.0,2.88,0.0,6.78,6.78,0.0,undercoupled,85.0,y-axis,control,,,,
0,0,90,0,75.0,12.0,0.0,86.999,86.999,-240.0,6.33383,0.0,6.33029,6.33383,6.33383,0.0487,286.5,0.4593,2.29652,5.0,117.49,117.49,0.0,0.0,0.0,0.00851126,-0.798,-0.798,-240.0,2.88,0.0,6.78,6.78,0.0,undercoupled,90.0,y-axis,control,,,,
0,0,95,0,75.0,12.0,0.0,86.999,86.999,-240.0,6.33383,0.0,6.33029,6.33383,6.33383,0.0487,286.5,0.4593,2.29652,5.0,117.49,117.49,0.0,0.0,0.0,0.00851126,-0.798,-0.798,-240.0,2.88,0.0,6.78,6.78,0.0,undercoupled,95.0,y-axis,control,,,,
0,0,100,0,75.0,12.0,0.0,86.999,86.999,-240.0,6.33383,0.0,6.33029,6.33383,6.33383,0.0487,286.5,0.4593,2.29652,5.0,117.49,117.49,0.0,0.0,0.0,0.00851126,-0.798,-0.798,-240.0,2.88,0.0,6.78,6.78,0.0,undercoupled,100.0,y-axis,control,,,,
0,5,5,0,75.0,12.0,0.546997,86.999,86.999,-15.226,6.33383,0.75048,6.33029,6.33383,6.33383,0.0487,286.5,0.4593,2.29652,5.0,117.49,117.49,617.5834,0.09750545,11.45605,0.00851126,-0.798,-0.798,-15.226,2.88,0.0216137,6.4718,7.1369,665.04,overcoupled,7.071,diagonal,control,,,,
0,10,10,0,75.0,12.0,0.546404,86.999,86.999,-14.653,6.33383,0.85625,6.33029,6.33383,6.33383,0.0487,286.5,0.4593,2.29652,5.0,117.49,117.49,577.5538,0.09118549,10.71351,0.00851126,-0.798,-0.798,-14.653,2.88,0.02466005,6.4905,7.112,621.47,overcoupled,14.142,diagonal,control,,,,
0,15,15,0,75.0,12.0,0.545094,86.999,86.999,-13.608,6.33383,1.08927,6.33029,6.33383,6.33383,0.0487,286.5,0.4593,2.29652,5.0,117.49,117.49,510.83779,0.08065222,9.47594,0.00851126,-0.798,-0.798,-13.608,2.88,0.03137096,6.5221,7.0711,549.06,overcoupled,21.213,diagonal,control,,,,
0,20,20,0,75.0,12.0,0.542123,86.999,86.999,-11.902,6.33383,1.61353,6.33029,6.33383,6.33383,0.0487,286.5,0.4593,2.29652,5.0,117.49,117.49,417.43539,0.06590564,7.74335,0.00851126,-0.798,-0.798,-11.902,2.88,0.04646952,6.567,7.0151,448.06,overcoupled,28.284,diagonal,control,,,,
0,25,25,0,75.0,12.0,0.533625,86.999,86.999,-9.092,6.33383,3.08109,6.33029,6.33383,6.33383,0.0487,286.5,0.4593,2.29652,5.0,117.49,117.49,297.34659,0.04694575,5.51572,0.00851126,-0.798,-0.798,-9.092,2.88,0.08873533,6.6262,6.945,318.73,overcoupled,35.355,diagonal,control,,,,
0,30,30,0,75.0,12.0,0.488907,86.999,86.999,-3.971,6.33383,10.01973,6.33029,6.33383,6.33383,0.0487,286.5,0.4593,2.29652,5.0,117.49,117.49,151.0697,0.02385122,2.80231,0.00851126,-0.798,-0.798,-3.971,2.88,0.28856832,6.7006,6.8623,161.77,overcoupled,42.426,diagonal,control,,,,
0,35,35,0,75.0,12.0,0.126315,86.999,86.999,-1.508,6.33383,17.66555,6.33029,6.33383,6.33383,0.0487,286.5,0.4593,2.29652,5.0,117.49,117.49,29.39478,0.00464091,0.54527,0.00851126,-0.798,-0.798,-1.508,2.88,0.50876795,6.78,6.78,0.0,undercoupled,49.497,diagonal,control,,,,
0,40,40,0,75.0,12.0,0.0,86.999,86.999,-240.0,6.33383,0.0,6.33029,6.33383,6.33383,0.0487,286.5,0.4593,2.29652,5.0,117.49,117.49,0.0,0.0,0.0,0.00851126,-0.798,-0.798,-240.0,2.88,0.0,6.78,6.78,0.0,undercoupled,56.569,diagonal,control,,,,
0,45,45,0,75.0,12.0,0.0,86.999,86.999,-240.0,6.33383,0.0,6.33029,6.33383,6.33383,0.0487,286.5,0.4593,2.29652,5.0,117.49,117.49,0.0,0.0,0.0,0.00851126,-0.798,-0.798,-240.0,2.88,0.0,6.78,6.78,0.0,undercoupled,63.64,diagonal,control,,,,
0,50,50,0,75.0,12.0,0.0,86.999,86.999,-240.0,6.33383,0.0,6.33029,6.33383,6.33383,0.0487,286.5,0.4593,2.29652,5.0,117.49,117.49,0.0,0.0,0.0,0.00851126,-0.798,-0.798,-240.0,2.88,0.0,6.78,6.78,0.0,undercoupled,70.711,diagonal,control,,,,
0,55,55,0,75.0,12.0,0.0,86.999,86.999,-240.0,6.33383,0.0,6.33029,6.33383,6.33383,0.0487,286.5,0.4593,2.29652,5.0,117.49,117.49,0.0,0.0,0.0,0.00851126,-0.798,-0.798,-240.0,2.88,0.0,6.78,6.78,0.0,undercoupled,77.782,diagonal,control,,,,
0,60,60,0,75.0,12.0,0.0,86.999,86.999,-240.0,6.33383,0.0,6.33029,6.33383,6.33383,0.0487,286.5,0.4593,2.29652,5.0,117.49,117.49,0.0,0.0,0.0,0.00851126,-0.798,-0.798,-240.0,2.88,0.0,6.78,6.78,0.0,undercoupled,84.853,diagonal,control,,,,
0,65,65,0,75.0,12.0,0.0,86.999,86.999,-240.0,6.33383,0.0,6.33029,6.33383,6.33383,0.0487,286.5,0.4593,2.29652,5.0,117.49,117.49,0.0,0.0,0.0,0.00851126,-0.798,-0.798,-240.0,2.88,0.0,6.78,6.78,0.0,undercoupled,91.924,diagonal,control,,,,
0,70,70,0,75.0,12.0,0.0,86.999,86.999,-240.0,6.33383,0.0,6.33029,6.33383,6.33383,0.0487,286.5,0.4593,2.29652,5.0,117.49,117.49,0.0,0.0,0.0,0.00851126,-0.798,-0.798,-240.0,2.88,0.0,6.78,6.78,0.0,undercoupled,98.995,diagonal,control,,,,
0,0,0,10,75.0,12.0,0.547047,86.999,86.999,-15.278,6.33383,0.74156,6.33029,6.33383,6.33383,0.0487,286.5,0.4593,2.29652,5.0,117.49,117.49,621.3414,0.09809877,11.52577,0.00851126,-0.798,-0.798,-15.278,2.88,0.02135694,6.4701,7.1392,669.14,overcoupled,0.0,x-axis,control,,,,
0,5,0,10,75.0,12.0,0.546959,86.999,86.999,-15.187,6.33383,0.75725,6.33029,6.33383,6.33383,0.0487,286.5,0.4593,2.29652,5.0,117.49,117.49,614.77116,0.09706145,11.40389,0.00851126,-0.798,-0.798,-15.187,2.88,0.02180887,6.4731,7.1351,661.98,overcoupled,5.0,x-axis,control,,,,
0,10,0,10,75.0,12.0,0.546678,86.999,86.999,-14.908,6.33383,0.80742,6.33029,6.33383,6.33383,0.0487,286.5,0.4593,2.29652,5.0,117.49,117.49,595.06043,0.09394947,11.03826,0.00851126,-0.798,-0.798,-14.908,2.88,0.02325368,6.4823,7.1228,640.52,overcoupled,10.0,x-axis,control,,,,
0,15,0,10,75.0,12.0,0.546143,86.999,86.999,-14.424,6.33383,0.90277,6.33029,6.33383,6.33383,0.0487,286.5,0.4593,2.29652,5.0,117.49,117.49,562.20921,0.08876285,10.42887,0.00851126,-0.798,-0.798,-14.424,2.88,0.02599968,6.4978,7.1025,604.79,overcoupled,15.0,x-axis,control,,,,
0,20,0,10,75.0,12.0,0.545219,86.999,86.999,-13.697,6.33383,1.06717,6.33029,6.33383,6.33383,0.0487,286.5,0.4593,2.29652,5.0,117.49,117.49,516.21751,0.08150158,9.57574,0.00851126,-0.798,-0.798,-13.697,2.88,0.03073454,6.5195,7.0744,554.89,overcoupled,20.0,x-axis,control,,,,
0,25,0,10,75.0,12.0,0.543603,86.999,86.999,-12.666,6.33383,1.35309,6.33029,6.33383,6.33383,0.0487,286.5,0.4593,2.29652,5.0,117.49,117.49,457.08531,0.07216565,8.47885,0.00851126,-0.798,-0.798,-12.666,2.88,0.03896909,6.5479,7.0387,490.88,overcoupled,25.0,x-axis,control,,,,
0,30,0,10,75.0,12.0,0.540556,86.999,86.999,-11.22,6.33383,1.88773,6.33029,6.33383,6.33383,0.0487,286.5,0.4593,2.29652,5.0,117.49,117.49,384.81264,0.06075508,7.1382,0.00851126,-0.798,-0.798,-11.22,2.88,0.05436676,6.583,6.9958,412.87,overcoupled,30.0,x-axis,control,,,,
0,35,0,10,75.0,12.0,0.533857,86.999,86.999,-9.148,6.33383,3.04163,6.33029,6.33383,6.33383,0.0487,286.5,0.4593,2.29652,5.0,117.49,117.49,299.39947,0.04726986,5.5538,0.00851126,-0.798,-0.798,-9.148,2.88,0.08759883,6.6252,6.9462,320.94,overcoupled,35.0,x-axis,control,,,,
0,40,0,10,75.0,12.0,0.514125,86.999,86.999,-6.008,6.33383,6.2686,6.33029,6.33383,6.33383,0.0487,286.5,0.4593,2.29652,5.0,117.49,117.49,200.84581,0.03170999,3.72565,0.00851126,-0.798,-0.798,-6.008,2.88,0.18053569,6.675,6.8901,215.13,overcoupled,40.0,x-axis,control,,,,
0,45,0,10,75.0,12.0,0.421262,86.999,86.999,-1.423,6.33383,18.01386,6.33029,6.33383,6.33383,0.0487,286.5,0.4593,2.29652,5.0,117.49,117.49,97.07969,0.01532716,1.80081,0.00851126,-0.798,-0.798,-1.423,2.88,0.51879924,6.7286,6.8326,103.93,overcoupled,45.0,x-axis,control,,,,
0,50,0,10,75.0,12.0,0.090975,86.999,86.999,-2.586,6.33383,13.78153,6.33029,6.33383,6.33383,0.0487,286.5,0.4593,2.29652,5.0,117.49,117.49,23.96923,0.00378432,0.44462,0.00851126,-0.798,-0.798,-2.586,2.88,0.39690799,6.78,6.78,0.0,undercoupled,50.0,x-axis,control,,,,
0,55,0,10,75.0,12.0,0.0,86.999,86.999,-240.0,6.33383,0.0,6.33029,6.33383,6.33383,0.0487,286.5,0.4593,2.29652,5.0,117.49,117.49,0.0,0.0,0.0,0.00851126,-0.798,-0.798,-240.0,2.88,0.0,6.78,6.78,0.0,undercoupled,55.0,x-axis,control,,,,
0,60,0,10,75.0,12.0,0.0,86.999,86.999,-240.0,6.33383,0.0,6.33029,6.33383,6.33383,0.0487,286.5,0.4593,2.29652,5.0,117.49,117.49,0.0,0.0,0.0,0.00851126,-0.798,-0.798,-240.0,2.88,0.0,6.78,6.78,0.0,undercoupled,60.0,x-axis,control,,,,
0,65,0,10,75.0,12.0,0.0,86.999,86.999,-240.0,6.33383,0.0,6.33029,6.33383,6.33383,0.0487,286.5,0.4593,2.29652,5.0,117.49,117.49,0.0,0.0,0.0,0.00851126,-0.798,-0.798,-240.0,2.88,0.0,6.78,6.78,0.0,undercoupled,65.0,x-axis,control,,,,
0,70,0,10,75.0,12.0,0.0,86.999,86.999,-240.0,6.33383,0.0,6.33029,6.33383,6.33383,0.0487,286.5,0.4593,2.29652,5.0,117.49,117.49,0.0,0.0,0.0,0.00851126,-0.798,-0.798,-240.0,2.88,0.0,6.78,6.78,0.0,undercoupled,70.0,x-axis,control,,,,
0,75,0,10,75.0,12.0,0.0,86.999,86.999,-240.0,6.33383,0.0,6.33029,6.33383,6.33383,0.0487,286.5,0.4593,2.29652,5.0,117.49,117.49,0.0,0.0,0.0,0.00851126,-0.798,-0.798,-240.0,2.88,0.0,6.78,6.78,0.0,undercoupled,75.0,x-axis,control,,,,
0,80,0,10,75.0,12.0,0.0,86.999,86.999,-240.0,6.33383,0.0,6.33029,6.33383,6.33383,0.0487,286.5,0.4593,2.29652,5.0,117.49,117.49,0.0,0.0,0.0,0.00851126,-0.798,-0.798,-240.0,2.88,0.0,6.78,6.78,0.0,undercoupled,80.0,x-axis,control,,,,
0,85,0,10,75.0,12.0,0.0,86.999,86.999,-240.0,6.33383,0.0,6.33029,6.33383,6.33383,0.0487,286.5,0.4593,2.29652,5.0,117.49,117.49,0.0,0.0,0.0,0.00851126,-0.798,-0.798,-240.0,2.88,0.0,6.78,6.78,0.0,undercoupled,85.0,x-axis,control,,,,
0,90,0,10,75.0,12.0,0.0,86.999,86.999,-240.0,6.33383,0.0,6.33029,6.33383,6.33383,0.0487,286.5,0.4593,2.29652,5.0,117.49,117.49,0.0,0.0,0.0,0.00851126,-0.798,-0.798,-240.0,2.88,0.0,6.78,6.78,0.0,undercoupled,90.0,x-axis,control,,,,
0,95,0,10,75.0,12.0,0.0,86.999,86.999,-240.0,6.33383,0.0,6.33029,6.33383,6.33383,0.0487,286.5,0.4593,2.29652,5.0,117.49,117.49,0.0,0.0,0.0,0.00851126,-0.798,-0.798,-240.0,2.88,0.0,6.78,6.78,0.0,undercoupled,95.0,x-axis,control,,,,
0,100,0,10,75.0,12.0,0.0,86.999,86.999,-240.0,6.33383,0.0,6.33029,6.33383,6.33383,0.0487,286.5,0.4593,2.29652,5.0,117.49,117.49,0.0,0.0,0.0,0.00851126,-0.798,-0.798,-240.0,2.88,0.0,6.78,6.78,0.0,undercoupled,100.0,x-axis,control,,,,
0,0,5,10,75.0,12.0,0.546959,86.999,86.999,-15.187,6.33383,0.75725,6.33029,6.33383,6.33383,0.0487,286.5,0.4593,2.29652,5.0,117.49,117.49,614.77116,0.09706145,11.40389,0.00851126,-0.798,-0.798,-15.187,2.88,0.02180887,6.4731,7.1351,661.98,overcoupled,5.0,y-axis,control,,,,
