conic_curve_mm,x_cord,y_cord,angle,temp,Vin,Vout,Cin,Cout,S21_param,inductance,efficiency,L_tx_uH,L_tx_eff_uH,L_rx_eff_uH,C_parasitic_pF,f_srf_MHz,R_skin_ohm,R_total_ohm,proximity_factor,Q_tx,Q_rx,M_nH,k,kQ,k_critical,S11_dB,S22_dB,S12_dB,P_in_W,P_out_W,f_split_low_MHz,f_split_high_MHz,split_gap_kHz,coupling_regime,d_lateral_mm,alignment,group,Vout_measured,Iout_measured,efficiency_measured,notes
0,0,0,0,75.0,12.0,0.54717,86.999,86.999,-15.409,6.33383,0.71952,6.33029,6.33383,6.33383,0.0487,286.5,0.4593,2.29652,5.0,117.49,117.49,630.9266,0.09961211,11.70357,0.00851126,-0.798,-0.798,-15.409,2.88,0.02072228,6.4656,7.1452,679.59,overcoupled,0.0,x-axis,control,,,,
0,5,0,0,75.0,12.0,0.547085,86.999,86.999,-15.318,6.33383,0.73476,6.33029,6.33383,6.33383,0.0487,286.5,0.4593,2.29652,5.0,117.49,117.49,624.255,0.09855878,11.57981,0.00851126,-0.798,-0.798,-15.318,2.88,0.02116099,6.4687,7.141,672.32,overcoupled,5.0,x-axis,control,,,,
0,10,0,0,75.0,12.0,0.546812,86.999,86.999,-15.039,6.33383,0.78346,6.33029,6.33383,6.33383,0.0487,286.5,0.4593,2.29652,5.0,117.49,117.49,604.2402,0.0953988,11.20854,0.00851126,-0.798,-0.798,-15.039,2.88,0.02256357,6.478,7.1285,650.51,overcoupled,10.0,x-axis,control,,,,
0,15,0,0,75.0,12.0,0.546293,86.999,86.999,-14.554,6.33383,0.87603,6.33029,6.33383,6.33383,0.0487,286.5,0.4593,2.29652,5.0,117.49,117.49,570.8822,0.09013216,10.58976,0.00851126,-0.798,-0.798,-14.554,2.88,0.02522955,6.4937,7.1079,614.22,overcoupled,15.0,x-axis,control,,,,
0,20,0,0,75.0,12.0,0.545396,86.999,86.999,-13.827,6.33383,1.03567,6.33029,6.33383,6.33383,0.0487,286.5,0.4593,2.29652,5.0,117.49,117.49,524.18099,0.08275887,9.72346,0.00851126,-0.798,-0.798,-13.827,2.88,0.02982719,6.5157,7.0793,563.52,overcoupled,20.0,x-axis,control,,,,
0,25,0,0,75.0,12.0,0.543828,86.999,86.999,-12.795,6.33383,1.31338,6.33029,6.33383,6.33383,0.0487,286.5,0.4593,2.29652,5.0,117.49,117.49,464.13659,0.07327893,8.60965,0.00851126,-0.798,-0.798,-12.795,2.88,0.03782531,6.5445,7.043,498.51,overcoupled,25.0,x-axis,control,,,,
0,30,0,0,75.0,12.0,0.54087,86.999,86.999,-11.348,6.33383,1.83294,6.33029,6.33383,6.33383,0.0487,286.5,0.4593,2.29652,5.0,117.49,117.49,390.74899,0.06169233,7.24832,0.00851126,-0.798,-0.798,-11.348,2.88,0.05278866,6.5801,6.9993,419.27,overcoupled,30.0,x-axis,control,,,,
0,35,0,0,75.0,12.0,0.534363,86.999,86.999,-9.273,6.33383,2.9555,6.33029,6.33383,6.33383,0.0487,286.5,0.4593,2.29652,5.0,117.49,117.49,304.01819,0.04799907,5.63948,0.00851126,-0.798,-0.798,-9.273,2.88,0.08511852,6.6229,6.9488,325.9,overcoupled,35.0,x-axis,control,,,,
0,40,0,0,75.0,12.0,0.515169,86.999,86.999,-6.123,6.33383,6.10429,6.33029,6.33383,6.33383,0.0487,286.5,0.4593,2.29652,5.0,117.49,117.49,203.94419,0.03219917,3.78313,0.00851126,-0.798,-0.798,-6.123,2.88,0.17580364,6.6734,6.8919,218.45,overcoupled,40.0,x-axis,control,,,,
0,45,0,0,75.0,12.0,0.424278,86.999,86.999,-1.494,6.33383,17.72167,6.33029,6.33383,6.33383,0.0487,286.5,0.4593,2.29652,5.0,117.49,117.49,98.5773,0.0155636,1.82859,0.00851126,-0.798,-0.798,-1.494,2.88,0.51038418,6.7278,6.8334,105.54,overcoupled,45.0,x-axis,control,,,,
0,50,0,0,75.0,12.0,0.093325,86.999,86.999,-2.498,6.33383,14.06528,6.33029,6.33383,6.33383,0.0487,286.5,0.4593,2.29652,5.0,117.49,117.49,24.33899,0.00384269,0.45148,0.00851126,-0.798,-0.798,-2.498,2.88,0.40507999,6.78,6.78,0.0,undercoupled,50.0,x-axis,control,,,,
0,55,0,0,75.0,12.0,0.0,86.999,86.999,-240.0,6.33383,0.0,6.33029,6.33383,6.33383,0.0487,286.5,0.4593,2.29652,5.0,117.49,117.49,0.0,0.0,0.0,0.00851126,-0.798,-0.798,-240.0,2.88,0.0,6.78,6.78,0.0,undercoupled,55.0,x-axis,control,,,,
0,60,0,0,75.0,12.0,0.0,86.999,86.999,-240.0,6.33383,0.0,6.33029,6.33383,6.33383,0.0487,286.5,0.4593,2.29652,5.0,117.49,117.49,0.0,0.0,0.0,0.00851126,-0.798,-0.798,-240.0,2.88,0.0,6.78,6.78,0.0,undercoupled,60.0,x-axis,control,,,,
0,65,0,0,75.0,12.0,0.0,86.999,86.999,-240.0,6.33383,0.0,6.33029,6.33383,6.33383,0.0487,286.5,0.4593,2.29652,5.0,117.49,117.49,0.0,0.0,0.0,0.00851126,-0.798,-0.798,-240.0,2.88,0.0,6.78,6.78,0.0,undercoupled,65.0,x-axis,control,,,,
0,70,0,0,75.0,12.0,0.0,86.999,86.999,-240.0,6.33383,0.0,6.33029,6.33383,6.33383,0.0487,286.5,0.4593,2.29652,5.0,117.49,117.49,0.0,0.0,0.0,0.00851126,-0.798,-0.798,-240.0,2.88,0.0,6.78,6.78,0.0,undercoupled,70.0,x-axis,control,,,,
0,75,0,0,75.0,12.0,0.0,86.999,86.999,-240.0,6.33383,0.0,6.33029,6.33383,6.33383,0.0487,286.5,0.4593,2.29652,5.0,117.49,117.49,0.0,0.0,0.0,0.00851126,-0.798,-0.798,-240.0,2.88,0.0,6.78,6.78,0.0,undercoupled,75.0,x-axis,control,,,,
0,80,0,0,75.0,12.0,0.0,86.999,86.999,-240.0,6.33383,0.0,6.33029,6.33383,6.33383,0.0487,286.5,0.4593,2.29652,5.0,117.49,117.49,0.0,0.0,0.0,0.00851126,-0.798,-0.798,-240.0,2.88,0.0,6.78,6.78,0.0,undercoupled,80.0,x-axis,control,,,,
0,85,0,0,75.0,12.0,0.0,86.999,86.999,-240.0,6.33383,0.0,6.33029,6.33383,6.33383,0.0487,286.5,0.4593,2.29652,5.0,117.49,117.49,0.0,0.0,0.0,0.00851126,-0.798,-0.798,-240.0,2.88,0.0,6.78,6.78,0.0,undercoupled,85.0,x-axis,control,,,,
0,90,0,0,75.0,12.0,0.0,86.999,86.999,-240.0,6.33383,0.0,6.33029,6.33383,6.33383,0.0487,286.5,0.4593,2.29652,5.0,117.49,117.49,0.0,0.0,0.0,0.00851126,-0.798,-0.798,-240.0,2.88,0.0,6.78,6.78,0.0,undercoupled,90.0,x-axis,control,,,,
0,95,0,0,75.0,12.0,0.0,86.999,86.999,-240.0,6.33383,0.0,6.33029,6.33383,6.33383,0.0487,286.5,0.4593,2.29652,5.0,117.49,117.49,0.0,0.0,0.0,0.00851126,-0.798,-0.798,-240.0,2.88,0.0,6.78,6.78,0.0,undercoupled,95.0,x-axis,control,,,,
0,100,0,0,75.0,12.0,0.0,86.999,86.999,-240.0,6.33383,0.0,6.33029,6.33383,6.33383,0.0487,286.5,0.4593,2.29652,5.0,117.49,117.49,0.0,0.0,0.0,0.00851126,-0.798,-0.798,-240.0,2.88,0.0,6.78,6.78,0.0,undercoupled,100.0,x-axis,control,,,,
0,0,5,0,75.0,12.0,0.547085,86.999,86.999,-15.318,6.33383,0.73476,6.33029,6.33383,6.33383,0.0487,286.5,0.4593,2.29652,5.0,117.49,117.49,624.255,0.09855878,11.57981,0.00851126,-0.798,-0.798,-15.318,2.88,0.02116099,6.4687,7.141,672.32,overcoupled,5.0,y-axis,control,,,,
0,0,10,0,75.0,12.0,0.546812,86.999,86.999,-15.039,6.33383,0.78346,6.33029,6.33383,6.33383,0.0487,286.5,0.4593,2.29652,5.0,117.49,117.49,604.2402,0.0953988,11.20854,0.00851126,-0.798,-0.798,-15.039,2.88,0.02256357,6.478,7.1285,650.51,overcoupled,10.0,y-axis,control,,,,
0,0,15,0,75.0,12.0,0.546293,86.999,86.999,-14.554,6.33383,0.87603,6.33029,6.33383,6.33383,0.0487,286.5,0.4593,2.29652,5.0,117.49,117.49,570.8822,0.09013216,10.58976,0.00851126,-0.798,-0.798,-14.554,2.88,0.02522955,6.4937,7.1079,614.22,overcoupled,15.0,y-axis,control,,,,
0,0,20,0,75.0,12.0,0.545396,86.999,86.999,-13.827,6.33383,1.03567,6.33029,6.33383,6.33383,0.0487,286.5,0.4593,2.29652,5.0,117.49,117.49,524.18099,0.08275887,9.72346,0.00851126,-0.798,-0.798,-13.827,2.88,0.02982719,6.5157,7.0793,563.52,overcoupled,20.0,y-axis,control,,,,
0,0,25,0,75.0,12.0,0.543828,86.999,86.999,-12.795,6.33383,1.31338,6.33029,6.33383,6.33383,0.0487,286.5,0.4593,2.29652,5.0,117.49,117.49,464.13659,0.07327893,8.60965,0.00851126,-0.798,-0.798,-12.795,2.88,0.03782531,6.5445,7.043,498.51,overcoupled,25.0,y-axis,control,,,,
0,0,30,0,75.0,12.0,0.54087,86.999,86.999,-11.348,6.33383,1.83294,6.33029,6.33383,6.33383,0.0487,286.5,0.4593,2.29652,5.0,117.49,117.49,390.74899,0.06169233,7.24832,0.00851126,-0.798,-0.798,-11.348,2.88,0.05278866,6.5801,6.9993,419.27,overcoupled,30.0,y-axis,control,,,,
0,0,35,0,75.0,12.0,0.534363,86.999,86.999,-9.273,6.33383,2.9555,6.33029,6.33383,6.33383,0.0487,286.5,0.4593,2.29652,5.0,117.49,117.49,304.01819,0.04799907,5.63948,0.00851126,-0.798,-0.798,-9.273,2.88,0.08511852,6.6229,6.9488,325.9,overcoupled,35.0,y-axis,control,,,,
0,0,40,0,75.0,12.0,0.515169,86.999,86.999,-6.123,6.33383,6.10429,6.33029,6.33383,6.33383,0.0487,286.5,0.4593,2.29652,5.0,117.49,117.49,203.94419,0.03219917,3.78313,0.00851126,-0.798,-0.798,-6.123,2.88,0.17580364,6.6734,6.8919,218.45,overcoupled,40.0,y-axis,control,,,,
0,0,45,0,75.0,12.0,0.424278,86.999,86.999,-1.494,6.33383,17.72167,6.33029,6.33383,6.33383,0.0487,286.5,0.4593,2.29652,5.0,117.49,117.49,98.5773,0.0155636,1.82859,0.00851126,-0.798,-0.798,-1.494,2.88,0.51038418,6.7278,6.8334,105.54,overcoupled,45.0,y-axis,control,,,,
0,0,50,0,75.0,12.0,0.093325,86.999,86.999,-2.498,6.33383,14.06528,6.33029,6.33383,6.33383,0.0487,286.5,0.4593,2.29652,5.0,117.49,117.49,24.33899,0.00384269,0.45148,0.00851126,-0.798,-0.798,-2.498,2.88,0.40507999,6.78,6.78,0.0,undercoupled,50.0,y-axis,control,,,,
0,0,55,0,75.0,12.0,0.0,86.999,86.999,-240.0,6.33383,0.0,6.33029,6.33383,6.33383,0.0487,286.5,0.4593,2.29652,5.0,117.49,117.49,0.0,0.0,0.0,0.00851126,-0.798,-0.798,-240.0,2.88,0.0,6.78,6.78,0.0,undercoupled,55.0,y-axis,control,,,,
0,0,60,0,75.0,12.0,0.0,86.999,86.999,-240.0,6.33383,0.0,6.33029,6.33383,6.33383,0.0487,286.5,0.4593,2.29652,5.0,117.49,117.49,0.0,0.0,0.0,0.00851126,-0.798,-0.798,-240.0,2.88,0.0,6.78,6.78,0.0,undercoupled,60.0,y-axis,control,,,,
0,0,65,0,75.0,12.0,0.0,86.999,86.999,-240.0,6.33383,0.0,6.33029,6.33383,6.33383,0.0487,286.5,0.4593,2.29652,5.0,117.49,117.49,0.0,0.0,0.0,0.00851126,-0.798,-0.798,-240.0,2.88,0.0,6.78,6.78,0.0,undercoupled,65.0,y-axis,control,,,,
0,0,70,0,75.0,12.0,0.0,86.999,86.999,-240.0,6.33383,0.0,6.33029,6.33383,6.33383,0.0487,286.5,0.4593,2.29652,5.0,117.49,117.49,0.0,0.0,0.0,0.00851126,-0.798,-0.798,-240.0,2.88,0.0,6.78,6.78,0.0,undercoupled,70.0,y-axis,control,,,,
0,0,75,0,75.0,12.0,0.0,86.999,86.999,-240.0,6.33383,0.0,6.33029,6.33383,6.33383,0.0487,286.5,0.4593,2.29652,5.0,117.49,117.49,0.0,0.0,0.0,0.00851126,-0.798,-0.798,-240.0,2.88,0.0,6.78,6.78,0.0,undercoupled,75.0,y-axis,control,,,,
0,0,80,0,75.0,12.0,0.0,86.999,86.999,-240.0,6.33383,0.0,6.33029,6.33383,6.33383,0.0487,286.5,0.4593,2.29652,5.0,117.49,117.49,0.0,0.0,0.0,0.00851126,-0.798,-0.798,-240.0,2.88,0.0,6.78,6.78,0.0,undercoupled,80.0,y-axis,control,,,,
0,0,85,0,75.0,12.0,0.0,86.999,86.999,-240.0,6.33383,0.0,6.33029,6.33383,6.33383,0.0487,286.5,0.4593,2.29652,5.0,117.49,117.49,0.0,0.0,0.0,0.00851126,-0.798,-0.798,-240.0,2.88,0.0,6.78,6.78,0.0,undercoupled,85.0,y-axis,control,,,,
0,0,90,0,75.0,12.0,0.0,86.999,86.999,-240.0,6.33383,0.0,6.33029,6.33383,6.33383,0.0487,286.5,0.4593,2.29652,5.0,117.49,117.49,0.0,0.0,0.0,0.00851126,-0.798,-0.798,-240.0,2.88,0.0,6.78,6.78,0.0,undercoupled,90.0,y-axis,control,,,,
0,0,95,0,75.0,12.0,0.0,86.999,86.999,-240.0,6.33383,0.0,6.33029,6.33383,6.33383,0.0487,286.5,0.4593,2.29652,5.0,117.49,117.49,0.0,0.0,0.0,0.00851126,-0.798,-0.798,-240.0,2.88,0.0,6.78,6.78,0.0,undercoupled,95.0,y-axis,control,,,,
0,0,100,0,75.0,12.0,0.0,86.999,86.999,-240.0,6.33383,0.0,6.33029,6.33383,6.33383,0.0487,286.5,0.4593,2.29652,5.0,117.49,117.49,0.0,0.0,0.0,0.00851126,-0.798,-0.798,-240.0,2.88,0.0,6.78,6.78,0.0,undercoupled,100.0,y-axis,control,,,,
0,0,0,45,75.0,12.0,0.543233,86.999,86.999,-12.461,6.33383,1.41841,6.33029,6.33383,6.33383,0.0487,286.5,0.4593,2.29652,5.0,117.49,117.49,446.13248,0.0704364,8.27567,0.00851126,-0.798,-0.798,-12.461,2.88,0.04085028,6.5531,7.0322,479.05,overcoupled,0.0,x-axis,control,,,,
0,5,0,45,75.0,12.0,0.543065,86.999,86.999,-12.372,6.33383,1.448,6.33029,6.33383,6.33383,0.0487,286.5,0.4593,2.29652,5.0,117.49,117.49,441.41494,0.06969158,8.18816,0.00851126,-0.798,-0.798,-12.372,2.88,0.0417023,6.5554,7.0294,473.95,overcoupled,5.0,x-axis,control,,,,
0,10,0,45,75.0,12.0,0.542528,86.999,86.999,-12.097,6.33383,1.54246,6.33029,6.33383,6.33383,0.0487,286.5,0.4593,2.29652,5.0,117.49,117.49,427.26234,0.06745714,7.92564,0.00851126,-0.798,-0.798,-12.097,2.88,0.04442277,6.5623,7.0209,458.66,overcoupled,10.0,x-axis,control,,,,
0,15,0,45,75.0,12.0,0.541507,86.999,86.999,-11.62,6.33383,1.72149,6.33029,6.33383,6.33383,0.0487,286.5,0.4593,2.29652,5.0,117.49,117.49,403.67467,0.06373306,7.48809,0.00851126,-0.798,-0.798,-11.62,2.88,0.04957883,6.5738,7.007,433.21,overcoupled,15.0,x-axis,control,,,,
0,20,0,45,75.0,12.0,0.539747,86.999,86.999,-10.907,6.33383,2.02865,6.33029,6.33383,6.33383,0.0487,286.5,0.4593,2.29652,5.0,117.49,117.49,370.65194,0.05851936,6.87552,0.00851126,-0.798,-0.798,-10.907,2.88,0.05842499,6.5899,6.9875,397.61,overcoupled,20.0,x-axis,control,,,,
0,25,0,45,75.0,12.0,0.536684,86.999,86.999,-9.9,6.33383,2.5582,6.33029,6.33383,6.33383,0.0487,286.5,0.4593,2.29652,5.0,117.49,117.49,328.19413,0.05181603,6.08794,0.00851126,-0.798,-0.798,-9.9,2.88,0.07367617,6.6109,6.9628,351.9,overcoupled,25.0,x-axis,control,,,,
0,30,0,45,75.0,12.0,0.530953,86.999,86.999,-8.498,6.33383,3.53268,6.33029,6.33383,6.33383,0.0487,286.5,0.4593,2.29652,5.0,117.49,117.49,276.30126,0.04362306,5.12534,0.00851126,-0.798,-0.798,-8.498,2.88,0.10174113,6.6368,6.9329,296.12,overcoupled,30.0,x-axis,control,,,,
0,35,0,45,75.0,12.0,0.518555,86.999,86.999,-6.524,6.33383,5.56646,6.33029,6.33383,6.33383,0.0487,286.5,0.4593,2.29652,5.0,117.49,117.49,214.97332,0.03394047,3.98771,0.00851126,-0.798,-0.798,-6.524,2.88,0.16031394,6.6678,6.8981,230.28,overcoupled,35.0,x-axis,control,,,,
0,40,0,45,75.0,12.0,0.483587,86.999,86.999,-3.662,6.33383,10.75759,6.33029,6.33383,6.33383,0.0487,286.5,0.4593,2.29652,5.0,117.49,117.49,144.21032,0.02276825,2.67507,0.00851126,-0.798,-0.798,-3.662,2.88,0.30981856,6.7041,6.8585,154.42,overcoupled,40.0,x-axis,control,,,,
0,45,0,45,75.0,12.0,0.34488,86.999,86.999,-0.284,6.33383,23.41919,6.33029,6.33383,6.33383,0.0487,286.5,0.4593,2.29652,5.0,117.49,117.49,69.70468,0.01100513,1.29301,0.00851126,-0.798,-0.798,-0.284,2.88,0.67447255,6.743,6.8176,74.62,overcoupled,45.0,x-axis,control,,,,
0,50,0,45,75.0,12.0,0.050978,86.999,86.999,-4.74,6.33383,8.39373,6.33029,6.33383,6.33383,0.0487,286.5,0.4593,2.29652,5.0,117.49,117.49,17.21026,0.0027172,0.31925,0.00851126,-0.798,-0.798,-4.74,2.88,0.24173936,6.78,6.78,0.0,undercoupled,50.0,x-axis,control,,,,
0,55,0,45,75.0,12.0,0.0,86.999,86.999,-240.0,6.33383,0.0,6.33029,6.33383,6.33383,0.0487,286.5,0.4593,2.29652,5.0,117.49,117.49,0.0,0.0,0.0,0.00851126,-0.798,-0.798,-240.0,2.88,0.0,6.78,6.78,0.0,undercoupled,55.0,x-axis,control,,,,
0,60,0,45,75.0,12.0,0.0,86.999,86.999,-240.0,6.33383,0.0,6.33029,6.33383,6.33383,0.0487,286.5,0.4593,2.29652,5.0,117.49,117.49,0.0,0.0,0.0,0.00851126,-0.798,-0.798,-240.0,2.88,0.0,6.78,6.78,0.0,undercoupled,60.0,x-axis,control,,,,
0,65,0,45,75.0,12.0,0.0,86.999,86.999,-240.0,6.33383,0.0,6.33029,6.33383,6.33383,0.0487,286.5,0.4593,2.29652,5.0,117.49,117.49,0.0,0.0,0.0,0.00851126,-0.798,-0.798,-240.0,2.88,0.0,6.78,6.78,0.0,undercoupled,65.0,x-axis,control,,,,
0,70,0,45,75.0,12.0,0.0,86.999,86.999,-240.0,6.33383,0.0,6.33029,6.33383,6.33383,0.0487,286.5,0.4593,2.29652,5.0,117.49,117.49,0.0,0.0,0.0,0.00851126,-0.798,-0.798,-240.0,2.88,0.0,6.78,6.78,0.0,undercoupled,70.0,x-axis,control,,,,
0,75,0,45,75.0,12.0,0.0,86.999,86.999,-240.0,6.33383,0.0,6.33029,6.33383,6.33383,0.0487,286.5,0.4593,2.29652,5.0,117.49,117.49,0.0,0.0,0.0,0.00851126,-0.798,-0.798,-240.0,2.88,0.0,6.78,6.78,0.0,undercoupled,75.0,x-axis,control,,,,
0,80,0,45,75.0,12.0,0.0,86.999,86.999,-240.0,6.33383,0.0,6.33029,6.33383,6.33383,0.0487,286.5,0.4593,2.29652,5.0,117.49,117.49,0.0,0.0,0.0,0.00851126,-0.798,-0.798,-240.0,2.88,0.0,6.78,6.78,0.0,undercoupled,80.0,x-axis,control,,,,
0,85,0,45,75.0,12.0,0.0,86.999,86.999,-240.0,6.33383,0.0,6.33029,6.33383,6.33383,0.0487,286.5,0.4593,2.29652,5.0,117.49,117.49,0.0,0.0,0.0,0.00851126,-0.798,-0.798,-240.0,2.88,0.0,6.78,6.78,0.0,undercoupled,85.0,x-axis,control,,,,
0,90,0,45,75.0,12.0,0.0,86.999,86.999,-240.0,6.33383,0.0,6.33029,6.33383,6.33383,0.0487,286.5,0.4593,2.29652,5.0,117.49,117.49,0.0,0.0,0.0,0.00851126,-0.798,-0.798,-240.0,2.88,0.0,6.78,6.78,0.0,undercoupled,90.0,x-axis,control,,,,
0,95,0,45,75.0,12.0,0.0,86.999,86.999,-240.0,6.33383,0.0,6.33029,6.33383,6.33383,0.0487,286.5,0.4593,2.29652,5.0,117.49,117.49,0.0,0.0,0.0,0.00851126,-0.798,-0.798,-240.0,2.88,0.0,6.78,6.78,0.0,undercoupled,95.0,x-axis,control,,,,
0,100,0,45,75.0,12.0,0.0,86.999,86.999,-240.0,6.33383,0.0,6.33029,6.33383,6.33383,0.0487,286.5,0.4593,2.29652,5.0,117.49,117.49,0.0,0.0,0.0,0.00851126,-0.798,-0.798,-240.0,2.88,0.0,6.78,6.78,0.0,undercoupled,100.0,x-axis,control,,,,
0,0,5,45,75.0,12.0,0.543065,86.999,86.999,-12.372,6.33383,1.448,6.33029,6.33383,6.33383,0.0487,286.5,0.4593,2.29652,5.0,117.49,117.49,441.41494,0.06969158,8.18816,0.00851126,-0.798,-0.798,-12.372,2.88,0.0417023,6.5554,7.0294,473.95,overcoupled,5.0,y-axis,control,,,,
0,0,10,45,75.0,12.0,0.542528,86.999,86.999,-12.097,6.33383,1.54246,6.33029,6.33383,6.33383,0.0487,286.5,0.4593,2.29652,5.0,117.49,117.49,427.26234,0.06745714,7.92564,0.00851126,-0.798,-0.798,-12.097,2.88,0.04442277,6.5623,7.0209,458.66,overcoupled,10.0,y-axis,control,,,,
0,0,15,45,75.0,12.0,0.541507,86.999,86.999,-11.62,6.33383,1.72149,6.33029,6.33383,6.33383,0.0487,286.5,0.4593,2.29652,5.0,117.49,117.49,403.67467,0.06373306,7.48809,0.00851126,-0.798,-0.798,-11.62,2.88,0.04957883,6.5738,7.007,433.21,overcoupled,15.0,y-axis,control,,,,
0,0,20,45,75.0,12.0,0.539747,86.999,86.999,-10.907,6.33383,2.02865,6.33029,6.33383,6.33383,0.0487,286.5,0.4593,2.29652,5.0,117.49,117.49,370.65194,0.05851936,6.87552,0.00851126,-0.798,-0.798,-10.907,2.88,0.05842499,6.5899,6.9875,397.61,overcoupled,20.0,y-axis,control,,,,
0,0,25,45,75.0,12.0,0.536684,86.999,86.999,-9.9,6.33383,2.5582,6.33029,6.33383,6.33383,0.0487,286.5,0.4593,2.29652,5.0,117.49,117.49,328.19413,0.05181603,6.08794,0.00851126,-0.798,-0.798,-9.9,2.88,0.07367617,6.6109,6.9628,351.9,overcoupled,25.0,y-axis,control,,,,
0,0,30,45,75.0,12.0,0.530953,86.999,86.999,-8.498,6.33383,3.53268,6.33029,6.33383,6.33383,0.0487,286.5,0.4593,2.29652,5.0,117.49,117.49,276.30126,0.04362306,5.12534,0.00851126,-0.798,-0.798,-8.498,2.88,0.10174113,6.6368,6.9329,296.12,overcoupled,30.0,y-axis,control,,,,
0,0,35,45,75.0,12.0,0.518555,86.999,86.999,-6.524,6.33383,5.56646,6.33029,6.33383,6.33383,0.0487,286.5,0.4593,2.29652,5.0,117.49,117.49,214.97332,0.03394047,3.98771,0.00851126,-0.798,-0.798,-6.524,2.88,0.16031394,6.6678,6.8981,230.28,overcoupled,35.0,y-axis,control,,,,
0,0,40,45,75.0,12.0,0.483587,86.999,86.999,-3.662,6.33383,10.75759,6.33029,6.33383,6.33383,0.0487,286.5,0.4593,2.29652,5.0,117.49,117.49,144.21032,0.02276825,2.67507,0.00851126,-0.798,-0.798,-3.662,2.88,0.30981856,6.7041,6.8585,154.42,overcoupled,40.0,y-axis,control,,,,
0,0,45,45,75.0,12.0,0.34488,86.999,86.999,-0.284,6.33383,23.41919,6.33029,6.33383,6.33383,0.0487,286.5,0.4593,2.29652,5.0,117.49,117.49,69.70468,0.01100513,1.29301,0.00851126,-0.798,-0.798,-0.284,2.88,0.67447255,6.743,6.8176,74.62,overcoupled,45.0,y-axis,control,,,,
0,0,50,45,75.0,12.0,0.050978,86.999,86.999,-4.74,6.33383,8.39373,6.33029,6.33383,6.33383,0.0487,286.5,0.4593,2.29652,5.0,117.49,117.49,17.21026,0.0027172,0.31925,0.00851126,-0.798,-0.798,-4.74,2.88,0.24173936,6.78,6.78,0.0,undercoupled,50.0,y-axis,control,,,,
0,0,55,45,75.0,12.0,0.0,86.999,86.999,-240.0,6.33383,0.0,6.33029,6.33383,6.33383,0.0487,286.5,0.4593,2.29652,5.0,117.49,117.49,0.0,0.0,0.0,0.00851126,-0.798,-0.798,-240.0,2.88,0.0,6.78,6.78,0.0,undercoupled,55.0,y-axis,control,,,,
0,0,60,45,75.0,12.0,0.0,86.999,86.999,-240.0,6.33383,0.0,6.33029,6.33383,6.33383,0.0487,286.5,0.4593,2.29652,5.0,117.49,117.49,0.0,0.0,0.0,0.00851126,-0.798,-0.798,-240.0,2.88,0.0,6.78,6.78,0.0,undercoupled,60.0,y-axis,control,,,,
0,0,65,45,75.0,12.0,0.0,86.999,86.999,-240.0,6.33383,0.0,6.33029,6.33383,6.33383,0.0487,286.5,0.4593,2.29652,5.0,117.49,117.49,0.0,0.0,0.0,0.00851126,-0.798,-0.798,-240.0,2.88,0.0,6.78,6.78,0.0,undercoupled,65.0,y-axis,control,,,,
0,0,70,45,75.0,12.0,0.0,86.999,86.999,-240.0,6.33383,0.0,6.33029,6.33383,6.33383,0.0487,286.5,0.4593,2.29652,5.0,117.49,117.49,0.0,0.0,0.0,0.00851126,-0.798,-0.798,-240.0,2.88,0.0,6.78,6.78,0.0,undercoupled,70.0,y-axis,control,,,,
0,0,75,45,75.0,12.0,0.0,86.999,86.999,-240.0,6.33383,0.0,6.33029,6.33383,6.33383,0.0487,286.5,0.4593,2.29652,5.0,117.49,117.49,0.0,0.0,0.0,0.00851126,-0.798,-0.798,-240.0,2.88,0.0,6.78,6.78,0.0,undercoupled,75.0,y-axis,control,,,,
